T494C 217:835.731   SEGGER J-Link V6.70b Log File
T494C 217:835.822   DLL Compiled: Apr  3 2020 11:44:53
T494C 217:835.829   Logging started @ 2020-04-12 02:20
T494C 217:835.842 JLINK_SetWarnOutHandler(...)
T494C 217:835.848 - 0.010ms
T494C 217:835.861 JLINK_OpenEx(...)
T494C 217:837.885   Firmware: J-Link STLink V21 compiled Aug 12 2019 10:29:20
T494C 217:852.415   Hardware: V1.00
T494C 217:852.436   S/N: 775137607
T494C 217:852.445   OEM: SEGGER
T494C 217:852.453   Feature(s): None
T494C 217:853.652   TELNET listener socket opened on port 19021
T494C 217:858.237   WEBSRV Starting webserver
T494C 217:858.543   WEBSRV Webserver running on local port 19080
T494C 217:858.555 - 22.698ms returns "O.K."
T494C 217:858.586 JLINK_GetEmuCaps()
T494C 217:858.594 - 0.011ms returns 0x98EA5A33
T494C 217:858.607 JLINK_TIF_GetAvailable(...)
T494C 217:858.798 - 0.200ms
T494C 217:858.826 JLINK_SetErrorOutHandler(...)
T494C 217:858.838 - 0.016ms
T494C 217:858.858 JLINK_ExecCommand("ProjectFile = "E:\STM\btn-ExtInt\JLinkSettings.ini"", ...). 
T494C 217:859.691 - 0.842ms returns 0x00
T494C 217:860.067 JLINK_ExecCommand("Device = STM32F103VE", ...). 
T494C 217:860.664   Device "STM32F103VE" selected.
T494C 217:861.066 - 0.993ms returns 0x00
T494C 217:861.084 JLINK_ExecCommand("DisableConnectionTimeout", ...). 
T494C 217:861.096 - 0.006ms returns 0x01
T494C 217:861.109 JLINK_GetHardwareVersion()
T494C 217:861.115 - 0.008ms returns 0x2710
T494C 217:861.123 JLINK_GetDLLVersion()  returns 67002
T494C 217:861.135 JLINK_GetFirmwareString(...)
T494C 217:861.140 - 0.008ms
T494C 217:861.170 JLINK_GetDLLVersion()  returns 67002
T494C 217:861.178 JLINK_GetCompileDateTime()
T494C 217:861.183 - 0.007ms
T494C 217:861.196 JLINK_GetFirmwareString(...)
T494C 217:861.202 - 0.008ms
T494C 217:861.214 JLINK_GetHardwareVersion()
T494C 217:861.219 - 0.008ms returns 0x2710
T494C 217:861.247 JLINK_TIF_Select(JLINKARM_TIF_SWD)
T494C 217:861.867 - 0.633ms returns 0x00
T494C 217:861.900 JLINK_SetSpeed(5000)
T494C 217:861.971 - 0.079ms
T494C 217:861.989 JLINK_GetId()
T494C 217:862.962   Found SW-DP with ID 0x1BA01477
T494C 217:875.582   Found SW-DP with ID 0x1BA01477
T494C 217:877.150   Old FW that does not support reading DPIDR via DAP jobs
T494C 217:877.881   Unknown DP version. Assuming DPv0
T494C 217:877.901   Scanning AP map to find all available APs
T494C 217:878.477   AP[1]: Stopped AP scan as end of AP map has been reached
T494C 217:878.496   AP[0]: AHB-AP (IDR: 0x14770011)
T494C 217:878.508   Iterating through AP map to find AHB-AP to use
T494C 217:879.383   AP[0]: Core found
T494C 217:879.400   AP[0]: AHB-AP ROM base: 0xE00FF000
T494C 217:879.852   CPUID register: 0x411FC231. Implementer code: 0x41 (ARM)
T494C 217:879.869   Found Cortex-M3 r1p1, Little endian.
T494C 217:980.855    -- Max. mem block: 0x00002EB8
T494C 217:980.879    -- CPU_ReadMem(4 bytes @ 0xE000EDF0)
T494C 217:981.574    -- CPU_WriteMem(4 bytes @ 0xE000EDF0)
T494C 217:981.992    -- CPU_ReadMem(4 bytes @ 0xE0002000)
T494C 217:982.393   FPUnit: 6 code (BP) slots and 2 literal slots
T494C 217:982.409    -- CPU_ReadMem(4 bytes @ 0xE000EDFC)
T494C 217:982.838    -- CPU_WriteMem(4 bytes @ 0xE000EDFC)
T494C 217:983.203    -- CPU_ReadMem(4 bytes @ 0xE0001000)
T494C 217:983.569    -- CPU_WriteMem(4 bytes @ 0xE0001000)
T494C 217:983.938    -- CPU_ReadMem(4 bytes @ 0xE000ED88)
T494C 217:984.310    -- CPU_WriteMem(4 bytes @ 0xE000ED88)
T494C 217:984.681    -- CPU_ReadMem(4 bytes @ 0xE000ED88)
T494C 217:985.046    -- CPU_WriteMem(4 bytes @ 0xE000ED88)
T494C 217:985.436   CoreSight components:
T494C 217:985.454   ROMTbl[0] @ E00FF000
T494C 217:985.464    -- CPU_ReadMem(64 bytes @ 0xE00FF000)
T494C 217:986.248    -- CPU_ReadMem(32 bytes @ 0xE000EFE0)
T494C 217:986.818   ROMTbl[0][0]: E000E000, CID: B105E00D, PID: 001BB000 SCS
T494C 217:986.832    -- CPU_ReadMem(32 bytes @ 0xE0001FE0)
T494C 217:987.323   ROMTbl[0][1]: E0001000, CID: B105E00D, PID: 001BB002 DWT
T494C 217:987.339    -- CPU_ReadMem(32 bytes @ 0xE0002FE0)
T494C 217:987.902   ROMTbl[0][2]: E0002000, CID: B105E00D, PID: 000BB003 FPB
T494C 217:987.960    -- CPU_ReadMem(32 bytes @ 0xE0000FE0)
T494C 217:988.481   ROMTbl[0][3]: E0000000, CID: B105E00D, PID: 001BB001 ITM
T494C 217:988.495    -- CPU_ReadMem(32 bytes @ 0xE0040FE0)
T494C 217:989.010   ROMTbl[0][4]: E0040000, CID: B105900D, PID: 001BB923 TPIU-Lite
T494C 217:989.023    -- CPU_ReadMem(32 bytes @ 0xE0041FE0)
T494C 217:989.572   ROMTbl[0][5]: E0041000, CID: B105900D, PID: 101BB924 ETM-M3
T494C 217:989.817 - 127.834ms   returns 0x1BA01477
T494C 217:989.840 JLINK_GetDLLVersion()  returns 67002
T494C 217:989.939 JLINK_CORE_GetFound()
T494C 217:989.953 - 0.018ms returns 0x30000FF
T494C 217:989.971 JLINK_GetDebugInfo(0x100 = JLINKARM_ROM_TABLE_ADDR_INDEX)
T494C 217:989.980   Value=0xE00FF000
T494C 217:989.988 - 0.020ms returns 0x00
T494C 217:990.007 JLINK_GetDebugInfo(0x100 = JLINKARM_ROM_TABLE_ADDR_INDEX)
T494C 217:990.013   Value=0xE00FF000
T494C 217:990.021 - 0.016ms returns 0x00
T494C 217:990.028 JLINK_GetDebugInfo(0x101 = JLINKARM_DEBUG_INFO_ETM_ADDR_INDEX)
T494C 217:990.034   Value=0xE0041000
T494C 217:990.042 - 0.015ms returns 0x00
T494C 217:990.053   JLINK_ReadMemEx(0xE0041FD0, 0x0020 Bytes, ..., Flags = 0x02000004)
T494C 217:990.072    -- CPU_ReadMem(32 bytes @ 0xE0041FD0)
T494C 217:990.603   Data:  04 00 00 00 00 00 00 00 00 00 00 00 00 00 00 00 ...
T494C 217:990.616 - 0.567ms returns 0x20
T494C 217:990.627 JLINK_GetDebugInfo(0x102 = JLINKARM_DEBUG_INFO_MTB_ADDR_INDEX)
T494C 217:990.634   Value=0x00000000
T494C 217:990.642 - 0.017ms returns 0x00
T494C 217:990.649 JLINK_GetDebugInfo(0x103 = JLINKARM_DEBUG_INFO_TPIU_ADDR_INDEX)
T494C 217:990.655   Value=0xE0040000
T494C 217:990.663 - 0.017ms returns 0x00
T494C 217:990.674 JLINK_GetDebugInfo(0x104 = JLINKARM_DEBUG_INFO_ITM_ADDR_INDEX)
T494C 217:990.685   Value=0xE0000000
T494C 217:990.696 - 0.026ms returns 0x00
T494C 217:990.707 JLINK_GetDebugInfo(0x105 = JLINKARM_DEBUG_INFO_DWT_ADDR_INDEX)
T494C 217:990.715   Value=0xE0001000
T494C 217:990.725 - 0.022ms returns 0x00
T494C 217:990.736 JLINK_GetDebugInfo(0x106 = JLINKARM_DEBUG_INFO_FPB_ADDR_INDEX)
T494C 217:990.743   Value=0xE0002000
T494C 217:990.754 - 0.022ms returns 0x00
T494C 217:990.764 JLINK_GetDebugInfo(0x107 = JLINKARM_DEBUG_INFO_NVIC_ADDR_INDEX)
T494C 217:990.772   Value=0xE000E000
T494C 217:990.782 - 0.021ms returns 0x00
T494C 217:990.793 JLINK_GetDebugInfo(0x10C = JLINKARM_DEBUG_INFO_DBG_ADDR_INDEX)
T494C 217:990.801   Value=0xE000EDF0
T494C 217:990.811 - 0.022ms returns 0x00
T494C 217:990.822 JLINK_GetDebugInfo(0x01 = Unknown)
T494C 217:990.830   Value=0x00000000
T494C 217:990.839 - 0.021ms returns 0x00
T494C 217:990.857 JLINK_ReadMemU32(0xE000ED00, 0x0001 Items, ...)
T494C 217:990.877    -- CPU_ReadMem(4 bytes @ 0xE000ED00)
T494C 217:991.221   Data:  31 C2 1F 41
T494C 217:991.236    - CPUID
T494C 217:991.244 - 0.391ms returns 1
T494C 217:991.266 JLINK_GetDebugInfo(0x10F = JLINKARM_DEBUG_INFO_HAS_CORTEX_M_SECURITY_EXT_INDEX)
T494C 217:991.277   Value=0x00000000
T494C 217:991.286 - 0.024ms returns 0x00
T494C 217:991.307 JLINK_SetResetType(JLINKARM_CM3_RESET_TYPE_NORMAL)
T494C 217:991.322 - 0.018ms returns JLINKARM_CM3_RESET_TYPE_NORMAL
T494C 217:991.333 JLINK_Reset()
T494C 217:991.347   CPU is running
T494C 217:991.357    -- CPU_WriteMem(4 bytes @ 0xE000EDF0)
T494C 217:991.767   CPU is running
T494C 217:991.783    -- CPU_WriteMem(4 bytes @ 0xE000EDFC)
T494C 217:992.219   Reset: Halt core after reset via DEMCR.VC_CORERESET.
T494C 217:992.694   Reset: Reset device via AIRCR.SYSRESETREQ.
T494C 217:992.708   CPU is running
T494C 217:992.717    -- CPU_WriteMem(4 bytes @ 0xE000ED0C)
T494C 218:045.957    -- CPU_ReadMem(4 bytes @ 0xE000EDF0)
T494C 218:046.378    -- CPU_ReadMem(4 bytes @ 0xE000EDF0)
T494C 218:046.831   CPU is running
T494C 218:046.846    -- CPU_WriteMem(4 bytes @ 0xE000EDF0)
T494C 218:047.288   CPU is running
T494C 218:047.304    -- CPU_WriteMem(4 bytes @ 0xE000EDFC)
T494C 218:053.325    -- CPU_ReadMem(4 bytes @ 0xE000EDF0)
T494C 218:056.677    -- CPU_WriteMem(4 bytes @ 0xE0002000)
T494C 218:057.208    -- CPU_ReadMem(4 bytes @ 0xE000EDFC)
T494C 218:057.634    -- CPU_ReadMem(4 bytes @ 0xE0001000)
T494C 218:058.042 - 66.717ms
T494C 218:058.082 JLINK_ReadReg(R15 (PC))
T494C 218:058.094 - 0.014ms returns 0x08000144
T494C 218:058.189 JLINK_ReadReg(XPSR)
T494C 218:058.204 - 0.018ms returns 0x01000000
T494C 218:058.216 JLINK_Halt()
T494C 218:058.222 - 0.008ms returns 0x00
T494C 218:058.230 JLINK_ReadMemU32(0xE000EDF0, 0x0001 Items, ...)
T494C 218:058.242    -- CPU_ReadMem(4 bytes @ 0xE000EDF0)
T494C 218:058.726   Data:  03 00 03 00
T494C 218:058.742    - DHCSR
T494C 218:058.750 - 0.522ms returns 1
T494C 218:058.765 JLINK_WriteU32(0xE000EDF0, 0xA05F0003)
T494C 218:058.772    - DHCSR
T494C 218:058.795    -- CPU_WriteMem(4 bytes @ 0xE000EDF0)
T494C 218:059.185 - 0.426ms returns 0
T494C 218:059.200 JLINK_WriteU32(0xE000EDFC, 0x01000000)
T494C 218:059.206    - DEMCR
T494C 218:059.219    -- CPU_WriteMem(4 bytes @ 0xE000EDFC)
T494C 218:059.634 - 0.441ms returns 0
T494C 218:059.689 JLINK_GetHWStatus(...)
T494C 218:059.856 - 0.174ms returns 0x00
T494C 218:059.892 JLINK_GetNumBPUnits(Type = 0xFFFFFF00)
T494C 218:059.899 - 0.010ms returns 0x06
T494C 218:059.907 JLINK_GetNumBPUnits(Type = 0xF0)
T494C 218:059.912 - 0.008ms returns 0x2000
T494C 218:059.920 JLINK_GetNumWPUnits()
T494C 218:059.926 - 0.008ms returns 0x04
T494C 218:059.946 JLINK_GetSpeed()
T494C 218:059.952 - 0.008ms returns 0xFA0
T494C 218:059.968 JLINK_ReadMemU32(0xE000E004, 0x0001 Items, ...)
T494C 218:059.979    -- CPU_ReadMem(4 bytes @ 0xE000E004)
T494C 218:060.391   Data:  01 00 00 00
T494C 218:060.402 - 0.437ms returns 1
T494C 218:060.412 JLINK_ReadMemU32(0xE000E004, 0x0001 Items, ...)
T494C 218:060.422    -- CPU_ReadMem(4 bytes @ 0xE000E004)
T494C 218:060.744   Data:  01 00 00 00
T494C 218:060.756 - 0.346ms returns 1
T494C 218:060.768 JLINK_WriteMemEx(0xE0001000, 0x001C Bytes, ..., Flags = 0x02000004)
T494C 218:060.775   Data:  01 00 00 00 00 00 00 00 00 00 00 00 00 00 00 00 ...
T494C 218:061.400    -- CPU_WriteMem(28 bytes @ 0xE0001000)
T494C 218:061.891 - 1.129ms returns 0x1C
T494C 218:061.909 JLINK_ReadReg(R15 (PC))
T494C 218:061.917 - 0.011ms returns 0x08000144
T494C 218:061.925 JLINK_ReadReg(XPSR)
T494C 218:061.931 - 0.009ms returns 0x01000000
T494C 218:075.635   JLINK_ReadMemEx(0xE0001004, 0x0004 Bytes, ..., Flags = 0x02000000)
T494C 218:075.672   Data:  00 00 00 00
T494C 218:075.681    - DWT_CYCCNT
T494C 218:075.688 - 0.057ms returns 0x04
T494C 218:143.006 JLINK_SetResetType(JLINKARM_CM3_RESET_TYPE_NORMAL)
T494C 218:143.029 - 0.026ms returns JLINKARM_CM3_RESET_TYPE_NORMAL
T494C 218:143.038 JLINK_Reset()
T494C 218:143.056    -- CPU_WriteMem(4 bytes @ 0xE000EDF0)
T494C 218:143.488    -- CPU_WriteMem(4 bytes @ 0xE000EDFC)
T494C 218:143.935   Reset: Halt core after reset via DEMCR.VC_CORERESET.
T494C 218:144.583   Reset: Reset device via AIRCR.SYSRESETREQ.
T494C 218:144.598    -- CPU_WriteMem(4 bytes @ 0xE000ED0C)
T494C 218:197.858    -- CPU_ReadMem(4 bytes @ 0xE000EDF0)
T494C 218:198.187    -- CPU_ReadMem(4 bytes @ 0xE000EDF0)
T494C 218:198.488    -- CPU_WriteMem(4 bytes @ 0xE000EDF0)
T494C 218:198.809    -- CPU_WriteMem(4 bytes @ 0xE000EDFC)
T494C 218:204.346    -- CPU_ReadMem(4 bytes @ 0xE000EDF0)
T494C 218:207.720    -- CPU_WriteMem(4 bytes @ 0xE0002000)
T494C 218:208.216    -- CPU_ReadMem(4 bytes @ 0xE000EDFC)
T494C 218:208.648    -- CPU_ReadMem(4 bytes @ 0xE0001000)
T494C 218:209.079 - 66.048ms
T494C 218:209.237 JLINK_ReadReg(R15 (PC))
T494C 218:209.251 - 0.018ms returns 0x08000144
T494C 218:209.264 JLINK_ReadReg(XPSR)
T494C 218:209.275 - 0.017ms returns 0x01000000
T494C 218:209.781   JLINK_ReadMemEx(0x08000144, 0x003C Bytes, ..., Flags = 0x02000000)
T494C 218:209.800    -- CPU_ReadMem(64 bytes @ 0x08000140)
T494C 218:210.539    -- Updating C cache (64 bytes @ 0x08000140)
T494C 218:210.553    -- Read from C cache (60 bytes @ 0x08000144)
T494C 218:210.562   Data:  06 48 80 47 06 48 00 47 FE E7 FE E7 FE E7 FE E7 ...
T494C 218:210.570 - 0.795ms returns 0x3C
T494C 218:210.585   JLINK_ReadMemEx(0x08000144, 0x0002 Bytes, ..., Flags = 0x02000000)
T494C 218:210.595    -- Read from C cache (2 bytes @ 0x08000144)
T494C 218:210.603   Data:  06 48
T494C 218:210.611 - 0.028ms returns 0x02
T494C 218:210.694   JLINK_ReadMemEx(0x08000146, 0x0002 Bytes, ..., Flags = 0x02000000)
T494C 218:210.703    -- Read from C cache (2 bytes @ 0x08000146)
T494C 218:210.711   Data:  80 47
T494C 218:210.718 - 0.027ms returns 0x02
T494C 218:210.736   JLINK_ReadMemEx(0x08000146, 0x0002 Bytes, ..., Flags = 0x02000000)
T494C 218:210.744    -- Read from C cache (2 bytes @ 0x08000146)
T494C 218:210.752   Data:  80 47
T494C 218:210.759 - 0.027ms returns 0x02
T494C 218:210.767   JLINK_ReadMemEx(0x08000148, 0x003C Bytes, ..., Flags = 0x02000000)
T494C 218:210.777    -- CPU_ReadMem(64 bytes @ 0x08000180)
T494C 218:211.515    -- Updating C cache (64 bytes @ 0x08000180)
T494C 218:211.529    -- Read from C cache (60 bytes @ 0x08000148)
T494C 218:211.539   Data:  06 48 00 47 FE E7 FE E7 FE E7 FE E7 FE E7 FE E7 ...
T494C 218:211.547 - 0.782ms returns 0x3C
T494C 218:211.558   JLINK_ReadMemEx(0x08000148, 0x0002 Bytes, ..., Flags = 0x02000000)
T494C 218:211.567    -- Read from C cache (2 bytes @ 0x08000148)
T494C 218:211.575   Data:  06 48
T494C 218:211.583 - 0.028ms returns 0x02
T494C 219:795.369   JLINK_ReadMemEx(0x08000148, 0x003C Bytes, ..., Flags = 0x02000000)
T494C 219:795.397    -- Read from C cache (60 bytes @ 0x08000148)
T494C 219:795.406   Data:  06 48 00 47 FE E7 FE E7 FE E7 FE E7 FE E7 FE E7 ...
T494C 219:795.414 - 0.048ms returns 0x3C
T494C 219:795.423   JLINK_ReadMemEx(0x08000148, 0x0002 Bytes, ..., Flags = 0x02000000)
T494C 219:795.431    -- Read from C cache (2 bytes @ 0x08000148)
T494C 219:795.439   Data:  06 48
T494C 219:795.447 - 0.027ms returns 0x02
T494C 219:795.455   JLINK_ReadMemEx(0x0800014A, 0x0002 Bytes, ..., Flags = 0x02000000)
T494C 219:795.463    -- Read from C cache (2 bytes @ 0x0800014A)
T494C 219:795.471   Data:  00 47
T494C 219:795.478 - 0.026ms returns 0x02
T2090 220:192.554   JLINK_ReadMemEx(0x08000144, 0x0002 Bytes, ..., Flags = 0x02000000)
T2090 220:192.583    -- Read from C cache (2 bytes @ 0x08000144)
T2090 220:192.592   Data:  06 48
T2090 220:192.601 - 0.050ms returns 0x02
T2090 220:192.619   JLINK_SetBPEx(Addr = 0x080006EA, Type = 0xFFFFFFF2)
T2090 220:192.633 - 0.017ms returns 0x00000001
T2090 220:192.647 JLINK_Go()
T2090 220:193.062    -- CPU_WriteMem(4 bytes @ 0xE0002000)
T2090 220:193.479    -- CPU_ReadMem(4 bytes @ 0xE0001000)
T2090 220:193.875    -- CPU_WriteMem(4 bytes @ 0xE0002008)
T2090 220:193.888    -- CPU_WriteMem(4 bytes @ 0xE000200C)
T2090 220:193.897    -- CPU_WriteMem(4 bytes @ 0xE0002010)
T2090 220:193.906    -- CPU_WriteMem(4 bytes @ 0xE0002014)
T2090 220:193.914    -- CPU_WriteMem(4 bytes @ 0xE0002018)
T2090 220:193.923    -- CPU_WriteMem(4 bytes @ 0xE000201C)
T2090 220:195.404    -- CPU_WriteMem(4 bytes @ 0xE0001004)
T2090 220:196.212 - 3.572ms
T2090 220:296.315 JLINK_IsHalted()
T2090 220:299.029 - 2.726ms returns TRUE
T2090 220:299.058 JLINK_Halt()
T2090 220:299.068 - 0.014ms returns 0x00
T2090 220:299.080 JLINK_IsHalted()
T2090 220:299.089 - 0.012ms returns TRUE
T2090 220:299.101 JLINK_IsHalted()
T2090 220:299.109 - 0.012ms returns TRUE
T2090 220:299.120 JLINK_IsHalted()
T2090 220:299.129 - 0.012ms returns TRUE
T2090 220:299.145 JLINK_ReadReg(R15 (PC))
T2090 220:299.157 - 0.017ms returns 0x080006EA
T2090 220:299.170 JLINK_ReadReg(XPSR)
T2090 220:299.180 - 0.014ms returns 0x61000000
T2090 220:299.205 JLINK_ClrBPEx(BPHandle = 0x00000001)
T2090 220:299.216 - 0.015ms returns 0x00
T2090 220:299.234 JLINK_ReadMemU32(0xE000ED30, 0x0001 Items, ...)
T2090 220:299.251    -- CPU_ReadMem(4 bytes @ 0xE000ED30)
T2090 220:299.616   Data:  02 00 00 00
T2090 220:299.635 - 0.405ms returns 1
T2090 220:299.650 JLINK_ReadMemU32(0xE0001028, 0x0001 Items, ...)
T2090 220:299.668    -- CPU_ReadMem(4 bytes @ 0xE0001028)
T2090 220:300.267   Data:  00 00 00 00
T2090 220:300.316    - DWT_FUNC[0]
T2090 220:300.393 - 0.748ms returns 1
T2090 220:300.411 JLINK_ReadMemU32(0xE0001038, 0x0001 Items, ...)
T2090 220:300.459    -- CPU_ReadMem(4 bytes @ 0xE0001038)
T2090 220:300.796   Data:  00 02 00 00
T2090 220:300.813    - DWT_FUNC[1]
T2090 220:300.824 - 0.417ms returns 1
T2090 220:300.839 JLINK_ReadMemU32(0xE0001048, 0x0001 Items, ...)
T2090 220:300.856    -- CPU_ReadMem(4 bytes @ 0xE0001048)
T2090 220:301.176   Data:  00 00 00 00
T2090 220:301.193    - DWT_FUNC[2]
T2090 220:301.205 - 0.369ms returns 1
T2090 220:301.218 JLINK_ReadMemU32(0xE0001058, 0x0001 Items, ...)
T2090 220:301.233    -- CPU_ReadMem(4 bytes @ 0xE0001058)
T2090 220:301.621   Data:  00 00 00 00
T2090 220:301.638    - DWT_FUNC[3]
T2090 220:301.648 - 0.433ms returns 1
T2090 220:301.720 JLINK_ReadReg(R0)
T2090 220:301.740 - 0.028ms returns 0x080006EB
T2090 220:301.757 JLINK_ReadReg(R1)
T2090 220:301.768 - 0.015ms returns 0x20000400
T2090 220:301.779 JLINK_ReadReg(R2)
T2090 220:301.788 - 0.013ms returns 0x00000000
T2090 220:301.799 JLINK_ReadReg(R3)
T2090 220:301.807 - 0.012ms returns 0x080006DD
T2090 220:301.818 JLINK_ReadReg(R4)
T2090 220:301.826 - 0.012ms returns 0x08000714
T2090 220:301.838 JLINK_ReadReg(R5)
T2090 220:301.847 - 0.014ms returns 0x08000714
T2090 220:301.860 JLINK_ReadReg(R6)
T2090 220:301.869 - 0.016ms returns 0x00000000
T2090 220:301.888 JLINK_ReadReg(R7)
T2090 220:301.900 - 0.017ms returns 0x00000000
T2090 220:301.913 JLINK_ReadReg(R8)
T2090 220:301.929 - 0.020ms returns 0x00000000
T2090 220:301.942 JLINK_ReadReg(R9)
T2090 220:301.951 - 0.014ms returns 0x20000160
T2090 220:301.963 JLINK_ReadReg(R10)
T2090 220:301.972 - 0.013ms returns 0x00000000
T2090 220:301.988 JLINK_ReadReg(R11)
T2090 220:301.999 - 0.015ms returns 0x00000000
T2090 220:302.010 JLINK_ReadReg(R12)
T2090 220:302.019 - 0.012ms returns 0x00000010
T2090 220:302.030 JLINK_ReadReg(R13 (SP))
T2090 220:302.044 - 0.018ms returns 0x20000400
T2090 220:302.060 JLINK_ReadReg(R14)
T2090 220:302.070 - 0.015ms returns 0x08000185
T2090 220:302.088 JLINK_ReadReg(R15 (PC))
T2090 220:302.101 - 0.020ms returns 0x080006EA
T2090 220:302.118 JLINK_ReadReg(XPSR)
T2090 220:302.125 - 0.011ms returns 0x61000000
T2090 220:302.136 JLINK_ReadReg(MSP)
T2090 220:302.143 - 0.011ms returns 0x20000400
T2090 220:302.154 JLINK_ReadReg(PSP)
T2090 220:302.162 - 0.012ms returns 0x20001000
T2090 220:302.173 JLINK_ReadReg(CFBP)
T2090 220:302.187 - 0.019ms returns 0x00000000
T494C 220:309.157 JLINK_ReadMemU32(0xE0001004, 0x0001 Items, ...)
T494C 220:309.195    -- CPU_ReadMem(4 bytes @ 0xE0001004)
T494C 220:309.575   Data:  97 19 00 00
T494C 220:309.591    - DWT_CYCCNT
T494C 220:309.599 - 0.444ms returns 1
T494C 220:311.598   JLINK_ReadMemEx(0x080006EA, 0x0002 Bytes, ..., Flags = 0x02000000)
T494C 220:311.624    -- CPU_ReadMem(64 bytes @ 0x080006C0)
T494C 220:312.330    -- Updating C cache (64 bytes @ 0x080006C0)
T494C 220:312.344    -- Read from C cache (2 bytes @ 0x080006EA)
T494C 220:312.353   Data:  4F F4
T494C 220:312.362 - 0.767ms returns 0x02
T494C 220:312.374   JLINK_ReadMemEx(0x080006EC, 0x003C Bytes, ..., Flags = 0x02000000)
T494C 220:312.385    -- CPU_ReadMem(64 bytes @ 0x08000700)
T494C 220:313.129    -- Updating C cache (64 bytes @ 0x08000700)
T494C 220:313.142    -- Read from C cache (60 bytes @ 0x080006EC)
T494C 220:313.151   Data:  E0 60 FF F7 27 FF FF F7 CF FE FF F7 92 FE 01 E0 ...
T494C 220:313.159 - 0.788ms returns 0x3C
T494C 220:313.170   JLINK_ReadMemEx(0x080006EC, 0x0002 Bytes, ..., Flags = 0x02000000)
T494C 220:313.179    -- Read from C cache (2 bytes @ 0x080006EC)
T494C 220:313.188   Data:  E0 60
T494C 220:313.206 - 0.039ms returns 0x02
T494C 220:313.224   JLINK_ReadMemEx(0x080006EE, 0x0002 Bytes, ..., Flags = 0x02000000)
T494C 220:313.233    -- Read from C cache (2 bytes @ 0x080006EE)
T494C 220:313.241   Data:  FF F7
T494C 220:313.249 - 0.028ms returns 0x02
T494C 220:313.262   JLINK_ReadMemEx(0x080006F0, 0x003C Bytes, ..., Flags = 0x02000000)
T494C 220:313.285    -- Read from C cache (60 bytes @ 0x080006F0)
T494C 220:313.306   Data:  27 FF FF F7 CF FE FF F7 92 FE 01 E0 FF F7 4A FD ...
T494C 220:313.314 - 0.055ms returns 0x3C
T494C 220:313.323   JLINK_ReadMemEx(0x080006F0, 0x0002 Bytes, ..., Flags = 0x02000000)
T494C 220:313.331    -- Read from C cache (2 bytes @ 0x080006F0)
T494C 220:313.339   Data:  27 FF
T494C 220:313.347 - 0.027ms returns 0x02
T494C 243:624.943   JLINK_ReadMemEx(0x40010C00, 0x000C Bytes, ..., Flags = 0x02000004)
T494C 243:624.976    -- CPU_ReadMem(12 bytes @ 0x40010C00)
T494C 243:625.426   Data:  44 44 48 44 44 44 44 44 00 00 00 00
T494C 243:625.441 - 0.501ms returns 0x0C
T494C 243:625.454   JLINK_ReadMemEx(0x40010C0C, 0x0004 Bytes, ..., Flags = 0x02000004)
T494C 243:625.468    -- CPU_ReadMem(4 bytes @ 0x40010C0C)
T494C 243:625.859   Data:  10 00 00 00
T494C 243:625.871 - 0.420ms returns 0x04
T494C 243:625.883   JLINK_ReadMemEx(0x40010C18, 0x0004 Bytes, ..., Flags = 0x02000004)
T494C 243:625.895    -- CPU_ReadMem(4 bytes @ 0x40010C18)
T494C 243:626.382   Data:  00 00 00 00
T494C 243:626.398 - 0.518ms returns 0x04
T494C 259:141.907   JLINK_ReadMemEx(0x40011800, 0x000C Bytes, ..., Flags = 0x02000004)
T494C 259:142.029    -- CPU_ReadMem(12 bytes @ 0x40011800)
T494C 259:142.608   Data:  44 44 44 44 44 44 44 44 00 00 00 00
T494C 259:142.621 - 0.719ms returns 0x0C
T494C 259:142.634   JLINK_ReadMemEx(0x4001180C, 0x0004 Bytes, ..., Flags = 0x02000004)
T494C 259:142.647    -- CPU_ReadMem(4 bytes @ 0x4001180C)
T494C 259:143.037   Data:  00 00 00 00
T494C 259:143.049 - 0.418ms returns 0x04
T494C 259:143.062   JLINK_ReadMemEx(0x40011818, 0x0004 Bytes, ..., Flags = 0x02000004)
T494C 259:143.074    -- CPU_ReadMem(4 bytes @ 0x40011818)
T494C 259:143.461   Data:  00 00 00 00
T494C 259:143.472 - 0.414ms returns 0x04
T494C 334:203.385   JLINK_ReadMemEx(0x40010400, 0x0014 Bytes, ..., Flags = 0x02000004)
T494C 334:203.421    -- CPU_ReadMem(20 bytes @ 0x40010400)
T494C 334:204.000   Data:  00 00 00 00 00 00 00 00 00 00 00 00 00 00 00 00 ...
T494C 334:204.013 - 0.632ms returns 0x14
T494C 334:204.027   JLINK_ReadMemEx(0x40010414, 0x0004 Bytes, ..., Flags = 0x02000004)
T494C 334:204.041    -- CPU_ReadMem(4 bytes @ 0x40010414)
T494C 334:204.449   Data:  00 00 00 00
T494C 334:204.462 - 0.438ms returns 0x04
T2090 354:904.617   JLINK_ReadMemEx(0x080006EA, 0x0002 Bytes, ..., Flags = 0x02000000)
T2090 354:904.645    -- Read from C cache (2 bytes @ 0x080006EA)
T2090 354:904.654   Data:  4F F4
T2090 354:904.662 - 0.048ms returns 0x02
T2090 354:904.672   JLINK_ReadMemEx(0x080006EC, 0x003C Bytes, ..., Flags = 0x02000000)
T2090 354:904.680    -- Read from C cache (60 bytes @ 0x080006EC)
T2090 354:904.689   Data:  E0 60 FF F7 27 FF FF F7 CF FE FF F7 92 FE 01 E0 ...
T2090 354:904.697 - 0.028ms returns 0x3C
T2090 354:904.705   JLINK_ReadMemEx(0x080006EC, 0x0002 Bytes, ..., Flags = 0x02000000)
T2090 354:904.713    -- Read from C cache (2 bytes @ 0x080006EC)
T2090 354:904.721   Data:  E0 60
T2090 354:904.738 - 0.039ms returns 0x02
T2090 354:904.755   JLINK_ReadMemEx(0x080006EA, 0x0002 Bytes, ..., Flags = 0x02000000)
T2090 354:904.771    -- Read from C cache (2 bytes @ 0x080006EA)
T2090 354:904.782   Data:  4F F4
T2090 354:904.790 - 0.038ms returns 0x02
T2090 354:904.812 JLINK_Step()
T2090 354:905.236    -- Read from C cache (2 bytes @ 0x080006EA)
T2090 354:905.254    -- CPU_ReadMem(4 bytes @ 0xE000ED18)
T2090 354:905.678    -- CPU_WriteMem(4 bytes @ 0xE000ED18)
T2090 354:906.100    -- CPU_ReadMem(4 bytes @ 0xE000ED18)
T2090 354:906.505    -- CPU_WriteMem(4 bytes @ 0xE000ED18)
T2090 354:906.938    -- Read from C cache (2 bytes @ 0x080006EC)
T2090 354:906.959    -- Simulated
T2090 354:906.967 - 2.158ms returns 0x00
T2090 354:906.983 JLINK_ReadReg(R15 (PC))
T2090 354:906.992 - 0.012ms returns 0x080006EE
T2090 354:907.000 JLINK_ReadReg(XPSR)
T2090 354:907.007 - 0.009ms returns 0x61000000
T2090 354:907.023   JLINK_ReadMemEx(0x080006EC, 0x003C Bytes, ..., Flags = 0x02000000)
T2090 354:907.032    -- Read from C cache (60 bytes @ 0x080006EC)
T2090 354:907.040   Data:  E0 60 FF F7 27 FF FF F7 CF FE FF F7 92 FE 01 E0 ...
T2090 354:907.053 - 0.033ms returns 0x3C
T2090 354:907.061   JLINK_ReadMemEx(0x080006EC, 0x0002 Bytes, ..., Flags = 0x02000000)
T2090 354:907.069    -- Read from C cache (2 bytes @ 0x080006EC)
T2090 354:907.077   Data:  E0 60
T2090 354:907.085 - 0.027ms returns 0x02
T2090 354:907.094   JLINK_ReadMemEx(0x080006EE, 0x0002 Bytes, ..., Flags = 0x02000000)
T2090 354:907.102    -- Read from C cache (2 bytes @ 0x080006EE)
T2090 354:907.109   Data:  FF F7
T2090 354:907.117 - 0.026ms returns 0x02
T2090 354:907.125   JLINK_ReadMemEx(0x080006EE, 0x0002 Bytes, ..., Flags = 0x02000000)
T2090 354:907.134    -- Read from C cache (2 bytes @ 0x080006EE)
T2090 354:907.141   Data:  FF F7
T2090 354:907.149 - 0.026ms returns 0x02
T2090 354:907.157   JLINK_ReadMemEx(0x080006F0, 0x003C Bytes, ..., Flags = 0x02000000)
T2090 354:907.165    -- Read from C cache (60 bytes @ 0x080006F0)
T2090 354:907.173   Data:  27 FF FF F7 CF FE FF F7 92 FE 01 E0 FF F7 4A FD ...
T2090 354:907.181 - 0.027ms returns 0x3C
T2090 354:907.189   JLINK_ReadMemEx(0x080006F0, 0x0002 Bytes, ..., Flags = 0x02000000)
T2090 354:907.197    -- Read from C cache (2 bytes @ 0x080006F0)
T2090 354:907.205   Data:  27 FF
T2090 354:907.212 - 0.026ms returns 0x02
T2090 354:907.224   JLINK_SetBPEx(Addr = 0x080006F2, Type = 0xFFFFFFF2)
T2090 354:907.233 - 0.012ms returns 0x00000002
T2090 354:907.246 JLINK_Go()
T2090 354:907.255    -- CPU_WriteMem(4 bytes @ 0xE0002000)
T2090 354:907.867    -- CPU_ReadMem(4 bytes @ 0xE0001000)
T2090 354:908.316    -- CPU_WriteMem(4 bytes @ 0xE0002008)
T2090 354:908.741    -- CPU_WriteMem(4 bytes @ 0xE0001004)
T2090 354:910.298 - 3.060ms
T2090 355:011.017 JLINK_IsHalted()
T2090 355:014.007 - 2.998ms returns TRUE
T2090 355:014.026 JLINK_Halt()
T2090 355:014.031 - 0.008ms returns 0x00
T2090 355:014.039 JLINK_IsHalted()
T2090 355:014.045 - 0.008ms returns TRUE
T2090 355:014.052 JLINK_IsHalted()
T2090 355:014.058 - 0.008ms returns TRUE
T2090 355:014.065 JLINK_IsHalted()
T2090 355:014.070 - 0.007ms returns TRUE
T2090 355:014.081 JLINK_ReadReg(R15 (PC))
T2090 355:014.089 - 0.011ms returns 0x080006F2
T2090 355:014.097 JLINK_ReadReg(XPSR)
T2090 355:014.103 - 0.009ms returns 0x21000000
T2090 355:014.115 JLINK_ClrBPEx(BPHandle = 0x00000002)
T2090 355:014.122 - 0.009ms returns 0x00
T2090 355:014.134 JLINK_ReadMemU32(0xE000ED30, 0x0001 Items, ...)
T2090 355:014.146    -- CPU_ReadMem(4 bytes @ 0xE000ED30)
T2090 355:014.687   Data:  02 00 00 00
T2090 355:014.709 - 0.578ms returns 1
T2090 355:014.722 JLINK_ReadMemU32(0xE0001028, 0x0001 Items, ...)
T2090 355:014.739    -- CPU_ReadMem(4 bytes @ 0xE0001028)
T2090 355:015.543   Data:  00 00 00 00
T2090 355:015.570    - DWT_FUNC[0]
T2090 355:015.577 - 0.858ms returns 1
T2090 355:015.592 JLINK_ReadMemU32(0xE0001038, 0x0001 Items, ...)
T2090 355:015.610    -- CPU_ReadMem(4 bytes @ 0xE0001038)
T2090 355:016.448   Data:  00 02 00 00
T2090 355:016.475    - DWT_FUNC[1]
T2090 355:016.483 - 0.894ms returns 1
T2090 355:016.503 JLINK_ReadMemU32(0xE0001048, 0x0001 Items, ...)
T2090 355:016.522    -- CPU_ReadMem(4 bytes @ 0xE0001048)
T2090 355:016.970   Data:  00 00 00 00
T2090 355:016.989    - DWT_FUNC[2]
T2090 355:016.997 - 0.496ms returns 1
T2090 355:017.013 JLINK_ReadMemU32(0xE0001058, 0x0001 Items, ...)
T2090 355:017.029    -- CPU_ReadMem(4 bytes @ 0xE0001058)
T2090 355:017.950   Data:  00 00 00 00
T2090 355:017.985    - DWT_FUNC[3]
T2090 355:017.993 - 0.982ms returns 1
T2090 355:018.196 JLINK_ReadReg(R0)
T2090 355:018.222 - 0.031ms returns 0x00000700
T2090 355:018.233 JLINK_ReadReg(R1)
T2090 355:018.240 - 0.010ms returns 0x05FA0700
T2090 355:018.248 JLINK_ReadReg(R2)
T2090 355:018.255 - 0.009ms returns 0xE000ED0C
T2090 355:018.262 JLINK_ReadReg(R3)
T2090 355:018.268 - 0.008ms returns 0x080006DD
T2090 355:018.276 JLINK_ReadReg(R4)
T2090 355:018.283 - 0.009ms returns 0x08000714
T2090 355:018.290 JLINK_ReadReg(R5)
T2090 355:018.296 - 0.009ms returns 0x08000714
T2090 355:018.304 JLINK_ReadReg(R6)
T2090 355:018.310 - 0.014ms returns 0x00000000
T2090 355:018.328 JLINK_ReadReg(R7)
T2090 355:018.335 - 0.010ms returns 0x00000000
T2090 355:018.344 JLINK_ReadReg(R8)
T2090 355:018.350 - 0.009ms returns 0x00000000
T2090 355:018.359 JLINK_ReadReg(R9)
T2090 355:018.365 - 0.009ms returns 0x20000160
T2090 355:018.373 JLINK_ReadReg(R10)
T2090 355:018.379 - 0.009ms returns 0x00000000
T2090 355:018.387 JLINK_ReadReg(R11)
T2090 355:018.393 - 0.009ms returns 0x00000000
T2090 355:018.401 JLINK_ReadReg(R12)
T2090 355:018.407 - 0.009ms returns 0x00000010
T2090 355:018.416 JLINK_ReadReg(R13 (SP))
T2090 355:018.423 - 0.010ms returns 0x20000400
T2090 355:018.432 JLINK_ReadReg(R14)
T2090 355:018.438 - 0.008ms returns 0x080006F3
T2090 355:018.446 JLINK_ReadReg(R15 (PC))
T2090 355:018.454 - 0.011ms returns 0x080006F2
T2090 355:018.463 JLINK_ReadReg(XPSR)
T2090 355:018.471 - 0.010ms returns 0x21000000
T2090 355:018.479 JLINK_ReadReg(MSP)
T2090 355:018.486 - 0.011ms returns 0x20000400
T2090 355:018.496 JLINK_ReadReg(PSP)
T2090 355:018.504 - 0.010ms returns 0x20001000
T2090 355:018.512 JLINK_ReadReg(CFBP)
T2090 355:018.518 - 0.009ms returns 0x00000000
T494C 355:018.715 JLINK_ReadMemU32(0xE0001004, 0x0001 Items, ...)
T494C 355:018.775    -- CPU_ReadMem(4 bytes @ 0xE0001004)
T494C 355:019.433   Data:  B0 19 00 00
T494C 355:019.458    - DWT_CYCCNT
T494C 355:019.466 - 0.754ms returns 1
T494C 355:020.978   JLINK_ReadMemEx(0x40010400, 0x0014 Bytes, ..., Flags = 0x02000004)
T494C 355:021.015    -- CPU_ReadMem(20 bytes @ 0x40010400)
T494C 355:021.978   Data:  00 00 00 00 00 00 00 00 00 00 00 00 00 00 00 00 ...
T494C 355:022.019 - 1.045ms returns 0x14
T494C 355:022.044   JLINK_ReadMemEx(0x40010414, 0x0004 Bytes, ..., Flags = 0x02000004)
T494C 355:022.068    -- CPU_ReadMem(4 bytes @ 0x40010414)
T494C 355:022.649   Data:  00 00 00 00
T494C 355:022.671 - 0.630ms returns 0x04
T494C 355:024.510   JLINK_ReadMemEx(0x40011800, 0x000C Bytes, ..., Flags = 0x02000004)
T494C 355:024.551    -- CPU_ReadMem(12 bytes @ 0x40011800)
T494C 355:024.998   Data:  44 44 44 44 44 44 44 44 00 00 00 00
T494C 355:025.010 - 0.505ms returns 0x0C
T494C 355:025.024   JLINK_ReadMemEx(0x4001180C, 0x0004 Bytes, ..., Flags = 0x02000004)
T494C 355:025.037    -- CPU_ReadMem(4 bytes @ 0x4001180C)
T494C 355:025.372   Data:  00 00 00 00
T494C 355:025.384 - 0.364ms returns 0x04
T494C 355:025.396   JLINK_ReadMemEx(0x40011818, 0x0004 Bytes, ..., Flags = 0x02000004)
T494C 355:025.409    -- CPU_ReadMem(4 bytes @ 0x40011818)
T494C 355:025.705   Data:  00 00 00 00
T494C 355:025.724 - 0.341ms returns 0x04
T494C 355:026.308   JLINK_ReadMemEx(0x40010C00, 0x000C Bytes, ..., Flags = 0x02000004)
T494C 355:026.341    -- CPU_ReadMem(12 bytes @ 0x40010C00)
T494C 355:026.711   Data:  44 44 48 44 44 44 44 44 00 00 00 00
T494C 355:026.722 - 0.418ms returns 0x0C
T494C 355:026.739   JLINK_ReadMemEx(0x40010C0C, 0x0004 Bytes, ..., Flags = 0x02000004)
T494C 355:026.758    -- CPU_ReadMem(4 bytes @ 0x40010C0C)
T494C 355:027.134   Data:  10 00 00 00
T494C 355:027.146 - 0.410ms returns 0x04
T494C 355:027.158   JLINK_ReadMemEx(0x40010C18, 0x0004 Bytes, ..., Flags = 0x02000004)
T494C 355:027.171    -- CPU_ReadMem(4 bytes @ 0x40010C18)
T494C 355:027.485   Data:  00 00 00 00
T494C 355:027.496 - 0.341ms returns 0x04
T494C 355:027.852   JLINK_ReadMemEx(0x080006F2, 0x0002 Bytes, ..., Flags = 0x02000000)
T494C 355:027.870    -- CPU_ReadMem(64 bytes @ 0x080006C0)
T494C 355:028.561    -- Updating C cache (64 bytes @ 0x080006C0)
T494C 355:028.573    -- Read from C cache (2 bytes @ 0x080006F2)
T494C 355:028.581   Data:  FF F7
T494C 355:028.589 - 0.740ms returns 0x02
T494C 355:028.601   JLINK_ReadMemEx(0x080006F4, 0x003C Bytes, ..., Flags = 0x02000000)
T494C 355:028.611    -- CPU_ReadMem(64 bytes @ 0x08000700)
T494C 355:029.431    -- Updating C cache (64 bytes @ 0x08000700)
T494C 355:029.443    -- Read from C cache (60 bytes @ 0x080006F4)
T494C 355:029.452   Data:  CF FE FF F7 92 FE 01 E0 FF F7 4A FD FC E7 00 00 ...
T494C 355:029.460 - 0.862ms returns 0x3C
T494C 355:029.470   JLINK_ReadMemEx(0x080006F4, 0x0002 Bytes, ..., Flags = 0x02000000)
T494C 355:029.538    -- Read from C cache (2 bytes @ 0x080006F4)
T494C 355:029.546   Data:  CF FE
T494C 355:029.554 - 0.087ms returns 0x02
T494C 355:029.574   JLINK_ReadMemEx(0x080006F6, 0x0002 Bytes, ..., Flags = 0x02000000)
T494C 355:029.582    -- Read from C cache (2 bytes @ 0x080006F6)
T494C 355:029.590   Data:  FF F7
T494C 355:029.598 - 0.027ms returns 0x02
T494C 355:029.606   JLINK_ReadMemEx(0x080006F8, 0x003C Bytes, ..., Flags = 0x02000000)
T494C 355:029.614    -- Read from C cache (60 bytes @ 0x080006F8)
T494C 355:029.622   Data:  92 FE 01 E0 FF F7 4A FD FC E7 00 00 14 07 00 08 ...
T494C 355:029.630 - 0.027ms returns 0x3C
T494C 355:029.637   JLINK_ReadMemEx(0x080006F8, 0x0002 Bytes, ..., Flags = 0x02000000)
T494C 355:029.646    -- Read from C cache (2 bytes @ 0x080006F8)
T494C 355:029.653   Data:  92 FE
T494C 355:029.661 - 0.026ms returns 0x02
T2090 357:750.007   JLINK_ReadMemEx(0x080006F2, 0x0002 Bytes, ..., Flags = 0x02000000)
T2090 357:750.043    -- Read from C cache (2 bytes @ 0x080006F2)
T2090 357:750.053   Data:  FF F7
T2090 357:750.062 - 0.058ms returns 0x02
T2090 357:750.078   JLINK_SetBPEx(Addr = 0x080006F6, Type = 0xFFFFFFF2)
T2090 357:750.094 - 0.019ms returns 0x00000003
T2090 357:750.107 JLINK_Go()
T2090 357:750.510    -- CPU_WriteMem(4 bytes @ 0xE0002000)
T2090 357:750.853    -- CPU_ReadMem(4 bytes @ 0xE0001000)
T2090 357:751.155    -- CPU_WriteMem(4 bytes @ 0xE0002008)
T2090 357:751.903 - 1.803ms
T2090 357:852.174 JLINK_IsHalted()
T2090 357:855.464 - 3.308ms returns TRUE
T2090 357:855.495 JLINK_Halt()
T2090 357:855.501 - 0.009ms returns 0x00
T2090 357:855.509 JLINK_IsHalted()
T2090 357:855.514 - 0.008ms returns TRUE
T2090 357:855.522 JLINK_IsHalted()
T2090 357:855.527 - 0.008ms returns TRUE
T2090 357:855.535 JLINK_IsHalted()
T2090 357:855.540 - 0.008ms returns TRUE
T2090 357:855.551 JLINK_ReadReg(R15 (PC))
T2090 357:855.559 - 0.011ms returns 0x080006F6
T2090 357:855.568 JLINK_ReadReg(XPSR)
T2090 357:855.574 - 0.009ms returns 0x01000000
T2090 357:855.589 JLINK_ClrBPEx(BPHandle = 0x00000003)
T2090 357:855.596 - 0.009ms returns 0x00
T2090 357:855.608 JLINK_ReadMemU32(0xE000ED30, 0x0001 Items, ...)
T2090 357:855.620    -- CPU_ReadMem(4 bytes @ 0xE000ED30)
T2090 357:855.990   Data:  02 00 00 00
T2090 357:856.003 - 0.398ms returns 1
T2090 357:856.014 JLINK_ReadMemU32(0xE0001028, 0x0001 Items, ...)
T2090 357:856.025    -- CPU_ReadMem(4 bytes @ 0xE0001028)
T2090 357:856.366   Data:  00 00 00 00
T2090 357:856.378    - DWT_FUNC[0]
T2090 357:856.386 - 0.374ms returns 1
T2090 357:856.396 JLINK_ReadMemU32(0xE0001038, 0x0001 Items, ...)
T2090 357:856.406    -- CPU_ReadMem(4 bytes @ 0xE0001038)
T2090 357:856.740   Data:  00 02 00 00
T2090 357:856.752    - DWT_FUNC[1]
T2090 357:856.760 - 0.367ms returns 1
T2090 357:856.770 JLINK_ReadMemU32(0xE0001048, 0x0001 Items, ...)
T2090 357:856.780    -- CPU_ReadMem(4 bytes @ 0xE0001048)
T2090 357:857.167   Data:  00 00 00 00
T2090 357:857.180    - DWT_FUNC[2]
T2090 357:857.187 - 0.420ms returns 1
T2090 357:857.197 JLINK_ReadMemU32(0xE0001058, 0x0001 Items, ...)
T2090 357:857.207    -- CPU_ReadMem(4 bytes @ 0xE0001058)
T2090 357:857.528   Data:  00 00 00 00
T2090 357:857.540    - DWT_FUNC[3]
T2090 357:857.547 - 0.353ms returns 1
T2090 357:857.603 JLINK_ReadReg(R0)
T2090 357:857.612 - 0.012ms returns 0x40010C00
T2090 357:857.620 JLINK_ReadReg(R1)
T2090 357:857.626 - 0.009ms returns 0x00000020
T2090 357:857.634 JLINK_ReadReg(R2)
T2090 357:857.640 - 0.008ms returns 0x40010C00
T2090 357:857.647 JLINK_ReadReg(R3)
T2090 357:857.653 - 0.008ms returns 0x10030020
T2090 357:857.661 JLINK_ReadReg(R4)
T2090 357:857.667 - 0.008ms returns 0x08000714
T2090 357:857.674 JLINK_ReadReg(R5)
T2090 357:857.680 - 0.008ms returns 0x08000714
T2090 357:857.687 JLINK_ReadReg(R6)
T2090 357:857.693 - 0.008ms returns 0x00000000
T2090 357:857.701 JLINK_ReadReg(R7)
T2090 357:857.706 - 0.008ms returns 0x00000000
T2090 357:857.714 JLINK_ReadReg(R8)
T2090 357:857.723 - 0.018ms returns 0x00000000
T2090 357:857.738 JLINK_ReadReg(R9)
T2090 357:857.749 - 0.017ms returns 0x20000160
T2090 357:857.764 JLINK_ReadReg(R10)
T2090 357:857.775 - 0.018ms returns 0x00000000
T2090 357:857.788 JLINK_ReadReg(R11)
T2090 357:857.796 - 0.010ms returns 0x00000000
T2090 357:857.803 JLINK_ReadReg(R12)
T2090 357:857.809 - 0.008ms returns 0x00000020
T2090 357:857.817 JLINK_ReadReg(R13 (SP))
T2090 357:857.823 - 0.008ms returns 0x20000400
T2090 357:857.830 JLINK_ReadReg(R14)
T2090 357:857.836 - 0.008ms returns 0x080004C1
T2090 357:857.844 JLINK_ReadReg(R15 (PC))
T2090 357:857.849 - 0.008ms returns 0x080006F6
T2090 357:857.857 JLINK_ReadReg(XPSR)
T2090 357:857.862 - 0.008ms returns 0x01000000
T2090 357:857.870 JLINK_ReadReg(MSP)
T2090 357:857.876 - 0.008ms returns 0x20000400
T2090 357:857.883 JLINK_ReadReg(PSP)
T2090 357:857.889 - 0.008ms returns 0x20001000
T2090 357:857.896 JLINK_ReadReg(CFBP)
T2090 357:857.902 - 0.008ms returns 0x00000000
T494C 357:858.067 JLINK_ReadMemU32(0xE0001004, 0x0001 Items, ...)
T494C 357:858.084    -- CPU_ReadMem(4 bytes @ 0xE0001004)
T494C 357:858.452   Data:  F7 1A 00 00
T494C 357:858.465    - DWT_CYCCNT
T494C 357:858.473 - 0.408ms returns 1
T494C 357:859.718   JLINK_ReadMemEx(0x40010400, 0x0014 Bytes, ..., Flags = 0x02000004)
T494C 357:859.742    -- CPU_ReadMem(20 bytes @ 0x40010400)
T494C 357:860.264   Data:  00 00 00 00 00 00 00 00 00 00 00 00 00 00 00 00 ...
T494C 357:860.277 - 0.562ms returns 0x14
T494C 357:860.291   JLINK_ReadMemEx(0x40010414, 0x0004 Bytes, ..., Flags = 0x02000004)
T494C 357:860.304    -- CPU_ReadMem(4 bytes @ 0x40010414)
T494C 357:860.673   Data:  00 00 00 00
T494C 357:860.686 - 0.399ms returns 0x04
T494C 357:860.946   JLINK_ReadMemEx(0x40011800, 0x000C Bytes, ..., Flags = 0x02000004)
T494C 357:860.962    -- CPU_ReadMem(12 bytes @ 0x40011800)
T494C 357:861.383   Data:  44 44 44 44 44 44 44 44 00 00 00 00
T494C 357:861.396 - 0.453ms returns 0x0C
T494C 357:861.408   JLINK_ReadMemEx(0x4001180C, 0x0004 Bytes, ..., Flags = 0x02000004)
T494C 357:861.422    -- CPU_ReadMem(4 bytes @ 0x4001180C)
T494C 357:861.745   Data:  00 00 00 00
T494C 357:861.763 - 0.359ms returns 0x04
T494C 357:861.781   JLINK_ReadMemEx(0x40011818, 0x0004 Bytes, ..., Flags = 0x02000004)
T494C 357:861.802    -- CPU_ReadMem(4 bytes @ 0x40011818)
T494C 357:862.206   Data:  00 00 00 00
T494C 357:862.219 - 0.441ms returns 0x04
T494C 357:862.523   JLINK_ReadMemEx(0x40010C00, 0x000C Bytes, ..., Flags = 0x02000004)
T494C 357:862.538    -- CPU_ReadMem(12 bytes @ 0x40010C00)
T494C 357:862.935   Data:  44 44 38 44 44 44 44 44 F1 EE 00 00
T494C 357:862.947 - 0.428ms returns 0x0C
T494C 357:862.960   JLINK_ReadMemEx(0x40010C0C, 0x0004 Bytes, ..., Flags = 0x02000004)
T494C 357:862.974    -- CPU_ReadMem(4 bytes @ 0x40010C0C)
T494C 357:863.432   Data:  30 00 00 00
T494C 357:863.445 - 0.488ms returns 0x04
T494C 357:863.457   JLINK_ReadMemEx(0x40010C18, 0x0004 Bytes, ..., Flags = 0x02000004)
T494C 357:863.471    -- CPU_ReadMem(4 bytes @ 0x40010C18)
T494C 357:863.787   Data:  00 00 00 00
T494C 357:863.807 - 0.354ms returns 0x04
T494C 358:027.952   JLINK_ReadMemEx(0x080006F6, 0x0002 Bytes, ..., Flags = 0x02000000)
T494C 358:027.984    -- CPU_ReadMem(64 bytes @ 0x080006C0)
T494C 358:028.755    -- Updating C cache (64 bytes @ 0x080006C0)
T494C 358:028.772    -- Read from C cache (2 bytes @ 0x080006F6)
T494C 358:028.788   Data:  FF F7
T494C 358:028.801 - 0.854ms returns 0x02
T494C 358:028.820   JLINK_ReadMemEx(0x080006F8, 0x003C Bytes, ..., Flags = 0x02000000)
T494C 358:028.834    -- CPU_ReadMem(64 bytes @ 0x08000700)
T494C 358:029.747    -- Updating C cache (64 bytes @ 0x08000700)
T494C 358:029.804    -- Read from C cache (60 bytes @ 0x080006F8)
T494C 358:029.813   Data:  92 FE 01 E0 FF F7 4A FD FC E7 00 00 14 07 00 08 ...
T494C 358:029.824 - 1.007ms returns 0x3C
T494C 358:029.837   JLINK_ReadMemEx(0x080006F8, 0x0002 Bytes, ..., Flags = 0x02000000)
T494C 358:029.853    -- Read from C cache (2 bytes @ 0x080006F8)
T494C 358:029.865   Data:  92 FE
T494C 358:029.885 - 0.051ms returns 0x02
T494C 358:029.906   JLINK_ReadMemEx(0x080006FA, 0x0002 Bytes, ..., Flags = 0x02000000)
T494C 358:029.915    -- Read from C cache (2 bytes @ 0x080006FA)
T494C 358:029.923   Data:  01 E0
T494C 358:029.931 - 0.028ms returns 0x02
T494C 358:029.939   JLINK_ReadMemEx(0x080006FC, 0x003C Bytes, ..., Flags = 0x02000000)
T494C 358:029.947    -- Read from C cache (60 bytes @ 0x080006FC)
T494C 358:029.955   Data:  FF F7 4A FD FC E7 00 00 14 07 00 08 00 00 00 20 ...
T494C 358:029.963 - 0.027ms returns 0x3C
T494C 358:029.970   JLINK_ReadMemEx(0x080006FC, 0x0002 Bytes, ..., Flags = 0x02000000)
T494C 358:029.978    -- Read from C cache (2 bytes @ 0x080006FC)
T494C 358:029.986   Data:  FF F7
T494C 358:029.994 - 0.026ms returns 0x02
T2090 370:830.354   JLINK_ReadMemEx(0x080006F6, 0x0002 Bytes, ..., Flags = 0x02000000)
T2090 370:830.388    -- Read from C cache (2 bytes @ 0x080006F6)
T2090 370:830.405   Data:  FF F7
T2090 370:830.418 - 0.070ms returns 0x02
T2090 370:830.539   JLINK_SetBPEx(Addr = 0x080006FA, Type = 0xFFFFFFF2)
T2090 370:830.561 - 0.026ms returns 0x00000004
T2090 370:830.577 JLINK_Go()
T2090 370:831.010    -- CPU_WriteMem(4 bytes @ 0xE0002000)
T2090 370:831.447    -- CPU_ReadMem(4 bytes @ 0xE0001000)
T2090 370:831.847    -- CPU_WriteMem(4 bytes @ 0xE0002008)
T2090 370:832.820 - 2.254ms
T2090 370:933.767 JLINK_IsHalted()
T2090 370:937.279 - 3.561ms returns TRUE
T2090 370:937.378 JLINK_Halt()
T2090 370:937.403 - 0.053ms returns 0x00
T2090 370:937.456 JLINK_IsHalted()
T2090 370:937.481 - 0.037ms returns TRUE
T2090 370:937.517 JLINK_IsHalted()
T2090 370:937.541 - 0.036ms returns TRUE
T2090 370:937.576 JLINK_IsHalted()
T2090 370:937.603 - 0.038ms returns TRUE
T2090 370:937.649 JLINK_ReadReg(R15 (PC))
T2090 370:937.685 - 0.049ms returns 0x080006FA
T2090 370:937.720 JLINK_ReadReg(XPSR)
T2090 370:937.746 - 0.038ms returns 0x01000000
T2090 370:937.803 JLINK_ClrBPEx(BPHandle = 0x00000004)
T2090 370:937.831 - 0.039ms returns 0x00
T2090 370:937.882 JLINK_ReadMemU32(0xE000ED30, 0x0001 Items, ...)
T2090 370:937.926    -- CPU_ReadMem(4 bytes @ 0xE000ED30)
T2090 370:938.582   Data:  02 00 00 00
T2090 370:938.666 - 0.796ms returns 1
T2090 370:938.713 JLINK_ReadMemU32(0xE0001028, 0x0001 Items, ...)
T2090 370:938.764    -- CPU_ReadMem(4 bytes @ 0xE0001028)
T2090 370:939.471   Data:  00 00 00 00
T2090 370:939.531    - DWT_FUNC[0]
T2090 370:939.564 - 0.864ms returns 1
T2090 370:939.610 JLINK_ReadMemU32(0xE0001038, 0x0001 Items, ...)
T2090 370:939.660    -- CPU_ReadMem(4 bytes @ 0xE0001038)
T2090 370:940.376   Data:  00 02 00 00
T2090 370:940.447    - DWT_FUNC[1]
T2090 370:940.509 - 0.918ms returns 1
T2090 370:940.581 JLINK_ReadMemU32(0xE0001048, 0x0001 Items, ...)
T2090 370:940.645    -- CPU_ReadMem(4 bytes @ 0xE0001048)
T2090 370:941.340   Data:  00 00 00 00
T2090 370:941.415    - DWT_FUNC[2]
T2090 370:941.448 - 0.879ms returns 1
T2090 370:941.494 JLINK_ReadMemU32(0xE0001058, 0x0001 Items, ...)
T2090 370:941.544    -- CPU_ReadMem(4 bytes @ 0xE0001058)
T2090 370:942.325   Data:  00 00 00 00
T2090 370:942.384    - DWT_FUNC[3]
T2090 370:942.431 - 0.950ms returns 1
T2090 370:942.693 JLINK_ReadReg(R0)
T2090 370:942.745 - 0.066ms returns 0x200003F4
T2090 370:942.780 JLINK_ReadReg(R1)
T2090 370:942.806 - 0.038ms returns 0x0100000A
T2090 370:942.839 JLINK_ReadReg(R2)
T2090 370:942.863 - 0.036ms returns 0x00000010
T2090 370:942.895 JLINK_ReadReg(R3)
T2090 370:942.919 - 0.036ms returns 0x10010C00
T2090 370:942.951 JLINK_ReadReg(R4)
T2090 370:942.975 - 0.035ms returns 0x08000714
T2090 370:943.007 JLINK_ReadReg(R5)
T2090 370:943.031 - 0.035ms returns 0x08000714
T2090 370:943.063 JLINK_ReadReg(R6)
T2090 370:943.087 - 0.035ms returns 0x00000000
T2090 370:943.119 JLINK_ReadReg(R7)
T2090 370:943.143 - 0.035ms returns 0x00000000
T2090 370:943.175 JLINK_ReadReg(R8)
T2090 370:943.199 - 0.036ms returns 0x00000000
T2090 370:943.231 JLINK_ReadReg(R9)
T2090 370:943.255 - 0.035ms returns 0x20000160
T2090 370:943.287 JLINK_ReadReg(R10)
T2090 370:943.323 - 0.053ms returns 0x00000000
T2090 370:943.362 JLINK_ReadReg(R11)
T2090 370:943.386 - 0.036ms returns 0x00000000
T2090 370:943.437 JLINK_ReadReg(R12)
T2090 370:943.463 - 0.041ms returns 0x00000010
T2090 370:943.508 JLINK_ReadReg(R13 (SP))
T2090 370:943.597 - 0.112ms returns 0x20000400
T2090 370:943.661 JLINK_ReadReg(R14)
T2090 370:943.707 - 0.059ms returns 0x0800046D
T2090 370:943.742 JLINK_ReadReg(R15 (PC))
T2090 370:943.767 - 0.036ms returns 0x080006FA
T2090 370:943.799 JLINK_ReadReg(XPSR)
T2090 370:943.823 - 0.036ms returns 0x01000000
T2090 370:943.855 JLINK_ReadReg(MSP)
T2090 370:943.880 - 0.036ms returns 0x20000400
T2090 370:943.911 JLINK_ReadReg(PSP)
T2090 370:943.936 - 0.035ms returns 0x20001000
T2090 370:943.967 JLINK_ReadReg(CFBP)
T2090 370:943.992 - 0.036ms returns 0x00000000
T494C 370:950.920 JLINK_ReadMemU32(0xE0001004, 0x0001 Items, ...)
T494C 370:951.011    -- CPU_ReadMem(4 bytes @ 0xE0001004)
T494C 370:951.699   Data:  77 1D 00 00
T494C 370:951.758    - DWT_CYCCNT
T494C 370:951.791 - 0.883ms returns 1
T494C 370:964.569   JLINK_ReadMemEx(0x40010400, 0x0014 Bytes, ..., Flags = 0x02000004)
T494C 370:964.641    -- CPU_ReadMem(20 bytes @ 0x40010400)
T494C 370:965.366   Data:  10 00 00 00 00 00 00 00 00 00 00 00 10 00 00 00 ...
T494C 370:965.414 - 0.859ms returns 0x14
T494C 370:965.461   JLINK_ReadMemEx(0x40010414, 0x0004 Bytes, ..., Flags = 0x02000004)
T494C 370:965.503    -- CPU_ReadMem(4 bytes @ 0x40010414)
T494C 370:966.098   Data:  00 00 00 00
T494C 370:966.138 - 0.687ms returns 0x04
T494C 370:972.989   JLINK_ReadMemEx(0x40011800, 0x000C Bytes, ..., Flags = 0x02000004)
T494C 370:973.030    -- CPU_ReadMem(12 bytes @ 0x40011800)
T494C 370:973.527   Data:  44 44 48 44 44 44 44 44 FF FF 00 00
T494C 370:973.541 - 0.556ms returns 0x0C
T494C 370:973.556   JLINK_ReadMemEx(0x4001180C, 0x0004 Bytes, ..., Flags = 0x02000004)
T494C 370:973.571    -- CPU_ReadMem(4 bytes @ 0x4001180C)
T494C 370:974.003   Data:  10 00 00 00
T494C 370:974.016 - 0.464ms returns 0x04
T494C 370:974.029   JLINK_ReadMemEx(0x40011818, 0x0004 Bytes, ..., Flags = 0x02000004)
T494C 370:974.042    -- CPU_ReadMem(4 bytes @ 0x40011818)
T494C 370:974.460   Data:  00 00 00 00
T494C 370:974.477 - 0.452ms returns 0x04
T494C 371:117.744   JLINK_ReadMemEx(0x40010C00, 0x000C Bytes, ..., Flags = 0x02000004)
T494C 371:117.816    -- CPU_ReadMem(12 bytes @ 0x40010C00)
T494C 371:118.296   Data:  44 44 38 44 44 44 44 44 F1 EE 00 00
T494C 371:118.311 - 0.570ms returns 0x0C
T494C 371:118.324   JLINK_ReadMemEx(0x40010C0C, 0x0004 Bytes, ..., Flags = 0x02000004)
T494C 371:118.339    -- CPU_ReadMem(4 bytes @ 0x40010C0C)
T494C 371:118.745   Data:  30 00 00 00
T494C 371:118.756 - 0.435ms returns 0x04
T494C 371:118.769   JLINK_ReadMemEx(0x40010C18, 0x0004 Bytes, ..., Flags = 0x02000004)
T494C 371:118.782    -- CPU_ReadMem(4 bytes @ 0x40010C18)
T494C 371:119.135   Data:  00 00 00 00
T494C 371:119.147 - 0.381ms returns 0x04
T494C 371:121.740   JLINK_ReadMemEx(0x080006FA, 0x0002 Bytes, ..., Flags = 0x02000000)
T494C 371:121.773    -- CPU_ReadMem(64 bytes @ 0x080006C0)
T494C 371:122.593    -- Updating C cache (64 bytes @ 0x080006C0)
T494C 371:122.607    -- Read from C cache (2 bytes @ 0x080006FA)
T494C 371:122.616   Data:  01 E0
T494C 371:122.625 - 0.889ms returns 0x02
T494C 371:122.637   JLINK_ReadMemEx(0x080006FC, 0x003C Bytes, ..., Flags = 0x02000000)
T494C 371:122.648    -- CPU_ReadMem(64 bytes @ 0x08000700)
T494C 371:123.420    -- Updating C cache (64 bytes @ 0x08000700)
T494C 371:123.432    -- Read from C cache (60 bytes @ 0x080006FC)
T494C 371:123.441   Data:  FF F7 4A FD FC E7 00 00 14 07 00 08 00 00 00 20 ...
T494C 371:123.449 - 0.815ms returns 0x3C
T494C 371:123.459   JLINK_ReadMemEx(0x080006FC, 0x0002 Bytes, ..., Flags = 0x02000000)
T494C 371:123.468    -- Read from C cache (2 bytes @ 0x080006FC)
T494C 371:123.476   Data:  FF F7
T494C 371:123.484 - 0.028ms returns 0x02
T494C 371:123.510   JLINK_ReadMemEx(0x080006FC, 0x003C Bytes, ..., Flags = 0x02000000)
T494C 371:123.518    -- Read from C cache (60 bytes @ 0x080006FC)
T494C 371:123.559   Data:  FF F7 4A FD FC E7 00 00 14 07 00 08 00 00 00 20 ...
T494C 371:123.567 - 0.060ms returns 0x3C
T494C 371:123.575   JLINK_ReadMemEx(0x080006FC, 0x0002 Bytes, ..., Flags = 0x02000000)
T494C 371:123.583    -- Read from C cache (2 bytes @ 0x080006FC)
T494C 371:123.591   Data:  FF F7
T494C 371:123.599 - 0.027ms returns 0x02
T494C 371:123.607   JLINK_ReadMemEx(0x080006FE, 0x0002 Bytes, ..., Flags = 0x02000000)
T494C 371:123.616    -- Read from C cache (2 bytes @ 0x080006FE)
T494C 371:123.623   Data:  4A FD
T494C 371:123.631 - 0.027ms returns 0x02
T2090 381:899.120   JLINK_ReadMemEx(0x080006FA, 0x0002 Bytes, ..., Flags = 0x02000000)
T2090 381:899.173    -- Read from C cache (2 bytes @ 0x080006FA)
T2090 381:899.192   Data:  01 E0
